
**** 05/02/18 11:57:24 ****** PSpice Lite (October 2012) ****** ID# 10813 ****

 ** Profile: "SCHEMATIC1-bias"  [ D:\work\work_orcad\esd-pspicefiles\schematic1\bias.sim ] 


 ****     CIRCUIT DESCRIPTION


******************************************************************************




** Creating circuit file "bias.cir" 
** WARNING: THIS AUTOMATICALLY GENERATED FILE MAY BE OVERWRITTEN BY SUBSEQUENT SIMULATIONS

*Libraries: 
* Profile Libraries :
* Local Libraries :
.LIB "D:/work/mcu_calss/1_library/myled_upwledxx_180502.lib" 
* From [PSPICE NETLIST] section of C:\Users\KCCI\AppData\Roaming\SPB_16.6\cdssetup\OrCAD_PSpice/16.6.0/PSpice.ini file:
.lib "nomd.lib" 

*Analysis directives: 
.TRAN  0 3m 0 3u 
.OPTIONS ADVCONV
.PROBE64 V(alias(*)) I(alias(*)) W(alias(*)) D(alias(*)) NOISE(alias(*)) 
.INC "..\SCHEMATIC1.net" 



**** INCLUDING SCHEMATIC1.net ****
* source ESD
R_R1         OUT1 VCC  1k TC=0,0 
R_R2         N14615 IN  47k TC=0,0 
Q_Q1         OUT1 N14615 0 Q2N3904
V_V1         VCC 0 5
U_DSTM1         STIM(1,1) $G_DPWR 0 IN IO_STM IO_LEVEL=0 
+ 0 0
+ +0.5m 1
+REPEAT FOREVER
+ +0.5m 0
+  +0.5m 1
+ ENDREPEAT
Q_Q2         OUT2 N15413 0 Q2N3904
R_R3         OUT2 VCC  1k TC=0,0 
R_R5         0 N15413  47k TC=0,0 
R_R4         N15413 IN  47k TC=0,0 
Q_Q3         N15952 N15920 0 Qmmbt3904tt1
R_Rd         N16174 VCC  20 TC=0,0 
R_R7         N15920 IN  10k TC=0,0 
D_D1         N16174 N15952 upwledxx 

**** RESUMING bias.cir ****
.END


**** Generated AtoD and DtoA Interfaces ****

*
* Analog/Digital interface for node IN
*
* Moving U_DSTM1:OUT1 from analog node IN to new digital node IN$DtoA
X$IN_DtoA1
+ IN$DtoA
+ IN
+ $G_DPWR
+ 0
+ DtoA_STM
+       PARAMS: DRVH=   0      DRVL=   0      CAPACITANCE=   0     
*
* Analog/Digital interface power supply subcircuits
*
X$DIGIFPWR 0 DIGIFPWR


**** 05/02/18 11:57:24 ****** PSpice Lite (October 2012) ****** ID# 10813 ****

 ** Profile: "SCHEMATIC1-bias"  [ D:\work\work_orcad\esd-pspicefiles\schematic1\bias.sim ] 


 ****     Diode MODEL PARAMETERS


******************************************************************************




               upwledxx        
          IS    1.000000E-30 
           N    1.923        
         ISR    1.304000E-03 
          NR    3.400000E+06 
          BV   12            
         IBV  369.500000E-06 
          RS   32.09         
          TT  432.800000E-09 
         CJO   63.870000E-12 
          VJ    2.02         
           M     .1513       
          EG    3.6          
         XTI    5            


**** 05/02/18 11:57:24 ****** PSpice Lite (October 2012) ****** ID# 10813 ****

 ** Profile: "SCHEMATIC1-bias"  [ D:\work\work_orcad\esd-pspicefiles\schematic1\bias.sim ] 


 ****     BJT MODEL PARAMETERS


******************************************************************************




               Qmmbt3904tt1    Q2N3904         
               NPN             NPN             
       LEVEL    1               1            
          IS  126.532000E-12    6.734000E-15 
          EG    1.05                         
          BF  206.302         416.4          
          NF    1.5             1            
         VAF    1.000000E+03   74.03         
         IKF     .027222         .06678      
         ISE    2.307710E-09    6.734000E-15 
          NE    3.31052         1.259        
          BR   20.6302           .7371       
          NR    2.89609         1            
         VAR    9.39809                      
         IKR     .272221                     
         ISC    2.307710E-09                 
          NC    1.9876                       
         ISS    0               0            
          RB    5.8376         10            
         RBM     .634251                     
         IRB   50.3624                       
          RE  100.000000E-06    0            
          RC    2.65711         1            
         CJE    4.642140E-12    4.493000E-12 
         VJE     .4              .75         
         MJE     .256227         .2593       
         CJC    3.769610E-12    3.638000E-12 
         VJC     .4              .75         
         MJC     .238109         .3085       
        XCJC     .8             1            
         CJS    0               0            
         VJS     .75             .75         
         MJS     .5                          
          FC     .512134                     
          TF  419.578000E-12  301.200000E-12 
         XTF     .906167        2            
         VTF    8.75418         4            
         ITF     .010582         .4          
          TR   68.202300E-09  239.500000E-09 
         XTB     .1             1.5          
         XTI    1                            
          KF    0               0            
          AF    1               1            
          CN    2.42            2.42         
           D     .87             .87         


**** 05/02/18 11:57:24 ****** PSpice Lite (October 2012) ****** ID# 10813 ****

 ** Profile: "SCHEMATIC1-bias"  [ D:\work\work_orcad\esd-pspicefiles\schematic1\bias.sim ] 


 ****     Digital Input MODEL PARAMETERS


******************************************************************************




               DINSTM          
      S0NAME 0               
       S0TSW  500.000000E-12 
       S0RLO     .5          
       S0RHI    1.000000E+03 
      S1NAME 1               
       S1TSW  500.000000E-12 
       S1RLO    1.000000E+03 
       S1RHI     .5          
      S2NAME X               
       S2TSW  500.000000E-12 
       S2RLO     .429        
       S2RHI    1.16         
      S3NAME R               
       S3TSW  500.000000E-12 
       S3RLO     .429        
       S3RHI    1.16         
      S4NAME F               
       S4TSW  500.000000E-12 
       S4RLO     .429        
       S4RHI    1.16         
      S5NAME Z               
       S5TSW  500.000000E-12 
       S5RLO    1.000000E+06 
       S5RHI    1.000000E+06 


**** 05/02/18 11:57:24 ****** PSpice Lite (October 2012) ****** ID# 10813 ****

 ** Profile: "SCHEMATIC1-bias"  [ D:\work\work_orcad\esd-pspicefiles\schematic1\bias.sim ] 


 ****     Digital IO  MODEL PARAMETERS


******************************************************************************




               IO_STM          
        DRVL    0            
        DRVH    0            
       DtoA1 DtoA_STM        
       DtoA2 DtoA_STM        
       DtoA3 DtoA_STM        
       DtoA4 DtoA_STM        
       TPWRT  100.000000E+03 


**** 05/02/18 11:57:24 ****** PSpice Lite (October 2012) ****** ID# 10813 ****

 ** Profile: "SCHEMATIC1-bias"  [ D:\work\work_orcad\esd-pspicefiles\schematic1\bias.sim ] 


 ****     INITIAL TRANSIENT SOLUTION       TEMPERATURE =   27.000 DEG C


******************************************************************************



 NODE   VOLTAGE     NODE   VOLTAGE     NODE   VOLTAGE     NODE   VOLTAGE


(   IN)     .0025  (  VCC)    5.0000  ( OUT1)    5.0000  ( OUT2)    5.0000      

(N14615)     .0025 (N15413)     .0013 (N15920)     .0025 (N15952)    4.8324     

(N16174)    5.0000 ($G_DGND)    0.0000                   ($G_DPWR)    5.0000    



 DGTL NODE : STATE  DGTL NODE : STATE  DGTL NODE : STATE  DGTL NODE : STATE


( IN$DtoA) : 0     




    VOLTAGE SOURCE CURRENTS
    NAME         CURRENT

    V_V1        -2.479E-09
    X$DIGIFPWR.VDPWR  -5.003E-03
    X$DIGIFPWR.VDGND  -5.003E-03

    TOTAL POWER DISSIPATION   2.50E-02  WATTS



          JOB CONCLUDED

**** 05/02/18 11:57:24 ****** PSpice Lite (October 2012) ****** ID# 10813 ****

 ** Profile: "SCHEMATIC1-bias"  [ D:\work\work_orcad\esd-pspicefiles\schematic1\bias.sim ] 


 ****     JOB STATISTICS SUMMARY


******************************************************************************



  Total job time (using Solver 1)   =         .03
